! synthetic dipole-like antenna for e2e tests
# MHz S MA R 50
13.000 0.289505 -109.017
13.050 0.280672 -110.949
13.100 0.271944 -112.967
13.150 0.263339 -115.077
13.200 0.254879 -117.287
13.250 0.246585 -119.605
13.300 0.238482 -122.038
13.350 0.230597 -124.596
13.400 0.222958 -127.286
13.450 0.215598 -130.118
13.500 0.208551 -133.099
13.550 0.201853 -136.236
13.600 0.195544 -139.536
13.650 0.189666 -143.001
13.700 0.184261 -146.634
13.750 0.179373 -150.433
13.800 0.175044 -154.389
13.850 0.171317 -158.493
13.900 0.168228 -162.726
13.950 0.165811 -167.068
14.000 0.164090 -171.490
14.050 0.163082 -175.961
14.100 0.162794 179.551
14.150 0.163223 175.084
14.200 0.164354 170.669
14.250 0.166165 166.339
14.300 0.168625 162.121
14.350 0.171694 158.037
14.400 0.175332 154.104
14.450 0.179491 150.333
14.500 0.184126 146.732
14.550 0.189190 143.302
14.600 0.194638 140.042
14.650 0.200427 136.949
14.700 0.206517 134.017
14.750 0.212869 131.238
14.800 0.219450 128.604
14.850 0.226228 126.106
14.900 0.233175 123.737
14.950 0.240264 121.488
15.000 0.247472 119.349
15.050 0.254779 117.314
15.100 0.262165 115.375
15.150 0.269613 113.526
15.200 0.277109 111.759
15.250 0.284639 110.068
15.300 0.292191 108.449
15.350 0.299753 106.897
15.400 0.307316 105.405
15.450 0.314870 103.972
15.500 0.322410 102.591
